/I1/PLUS (Design_Point=1) X,/I1/PLUS (Design_Point=1) Y,/NM0/S (Design_Point=1) X,/NM0/S (Design_Point=1) Y,/out (Design_Point=1) X,/out (Design_Point=1) Y
0,9.999999999999999e-06,0,-1.642275816965603e-09,0,0.999989001653282
2.5e-10,9.999999999999999e-06,2.5e-10,-1.094310393764706e-05,2.5e-10,0.9741029596893506
4.740207210297677e-10,9.999999999999999e-06,4.740207210297677e-10,-1.089812509648507e-05,4.740207210297677e-10,0.9511566956558102
5.002500004166667e-10,9.999999999999999e-06,5.002500004166667e-10,-1.089290105245275e-05,5.002500004166667e-10,0.9484805767371324
5.012171196977818e-10,9.999999999999999e-06,5.012171196977818e-10,-1.089271220139802e-05,5.012171196977818e-10,0.9483838576635
5.019077420845216e-10,9.999999999999999e-06,5.019077420845216e-10,-1.089257730838683e-05,5.019077420845216e-10,0.9483147500172581
5.029885232075665e-10,9.999999999999999e-06,5.029885232075665e-10,-1.089236596116624e-05,5.029885232075665e-10,0.9482064536594395
5.042325153299529e-10,9.999999999999999e-06,5.042325153299529e-10,-1.089212241399085e-05,5.042325153299529e-10,0.9480816053082209
5.059645012121368e-10,9.999999999999999e-06,5.059645012121368e-10,-1.089178303267411e-05,5.059645012121368e-10,0.9479075113775477
5.079065138861339e-10,9.999999999999999e-06,5.079065138861339e-10,-1.089140234082965e-05,5.079065138861339e-10,0.9477120397130078
5.098592079738476e-10,9.999999999999999e-06,5.098592079738476e-10,-1.089101962683357e-05,5.098592079738476e-10,0.9475153012854484
5.117600136016387e-10,9.999999999999999e-06,5.117600136016387e-10,-1.089064730510688e-05,5.117600136016387e-10,0.9473236720538156
5.137530280673864e-10,9.999999999999999e-06,5.137530280673864e-10,-1.089025726384375e-05,5.137530280673864e-10,0.9471226703611059
5.159508400763177e-10,9.999999999999999e-06,5.159508400763177e-10,-1.088982764916754e-05,5.159508400763177e-10,0.9469009631045202
5.184794770999775e-10,9.999999999999999e-06,5.184794770999775e-10,-1.088933502528217e-05,5.184794770999775e-10,0.9466462253946151
5.214926274761804e-10,9.999999999999999e-06,5.214926274761804e-10,-1.088874827529089e-05,5.214926274761804e-10,0.9463423513704385
5.251810379001812e-10,9.999999999999999e-06,5.251810379001812e-10,-1.088803163312083e-05,5.251810379001812e-10,0.9459703822182927
5.298218369802072e-10,9.999999999999999e-06,5.298218369802072e-10,-1.08871328454849e-05,5.298218369802072e-10,0.945502573296963
5.358740320554652e-10,9.999999999999999e-06,5.358740320554652e-10,-1.088596465165571e-05,5.358740320554652e-10,0.9448925216703533
5.442004578186716e-10,9.999999999999999e-06,5.442004578186716e-10,-1.088436536457847e-05,5.442004578186716e-10,0.9440536623328266
5.566792297148096e-10,9.999999999999999e-06,5.566792297148096e-10,-1.088198389771647e-05,5.566792297148096e-10,0.9427970809172741
5.784718909622124e-10,9.999999999999999e-06,5.784718909622124e-10,-1.087786636145404e-05,5.784718909622124e-10,0.9406046030532146
6.220572134570179e-10,9.999999999999999e-06,6.220572134570179e-10,-1.086977417664484e-05,6.220572134570179e-10,0.9362272992997354
6.398504796967387e-10,9.999999999999999e-06,6.398504796967387e-10,-1.086652221151946e-05,6.398504796967387e-10,0.9344432744468829
6.64671487329458e-10,9.999999999999999e-06,6.64671487329458e-10,-1.086203246321279e-05,6.64671487329458e-10,0.93195746576969
6.766402115644526e-10,9.999999999999999e-06,6.766402115644526e-10,-1.085988669055066e-05,6.766402115644526e-10,0.9307599474570504
6.892174684946964e-10,9.999999999999999e-06,6.892174684946964e-10,-1.085764504169092e-05,6.892174684946964e-10,0.9295022293532693
7.004224944735344e-10,9.999999999999999e-06,7.004224944735344e-10,-1.085565929837554e-05,7.004224944735344e-10,0.928382134136029
7.089183410975566e-10,9.999999999999999e-06,7.089183410975566e-10,-1.085416038202235e-05,7.089183410975566e-10,0.9275328163058711
7.160591576288338e-10,9.999999999999999e-06,7.160591576288338e-10,-1.08529053720823e-05,7.160591576288338e-10,0.9268189833074272
7.225055034292731e-10,9.999999999999999e-06,7.225055034292731e-10,-1.085177516830585e-05,7.225055034292731e-10,0.9261741050670278
7.285667167043034e-10,9.999999999999999e-06,7.285667167043034e-10,-1.085071499569706e-05,7.285667167043034e-10,0.9255673704532565
7.345240568122384e-10,9.999999999999999e-06,7.345240568122384e-10,-1.084967425038759e-05,7.345240568122384e-10,0.9249702128136171
7.404047313851046e-10,9.999999999999999e-06,7.404047313851046e-10,-1.08486478286151e-05,7.404047313851046e-10,0.9243798489861438
7.462362020346743e-10,9.999999999999999e-06,7.462362020346743e-10,-1.084762970148107e-05,7.462362020346743e-10,0.9237930253953895
7.524667999410704e-10,9.999999999999999e-06,7.524667999410704e-10,-1.084654025168437e-05,7.524667999410704e-10,0.9231642505492038
7.592501174375084e-10,9.999999999999999e-06,7.592501174375084e-10,-1.084534986199084e-05,7.592501174375084e-10,0.9224767411350192
7.664528863867154e-10,9.999999999999999e-06,7.664528863867154e-10,-1.084407892763218e-05,7.664528863867154e-10,0.9217427700737175
7.739550101426032e-10,9.999999999999999e-06,7.739550101426032e-10,-1.084274326652317e-05,7.739550101426032e-10,0.9209726593298514
7.821626907451427e-10,9.999999999999999e-06,7.821626907451427e-10,-1.084126511242167e-05,7.821626907451427e-10,0.9201225422372399
7.912134054202422e-10,9.999999999999999e-06,7.912134054202422e-10,-1.083960607549745e-05,7.912134054202422e-10,0.919173678664933
8.01448574890546e-10,9.999999999999999e-06,8.01448574890546e-10,-1.083768661318438e-05,8.01448574890546e-10,0.9180843931939441
8.152880107786567e-10,9.999999999999999e-06,8.152880107786567e-10,-1.083500112915045e-05,8.152880107786567e-10,0.9165792024647648
8.309917926778612e-10,9.999999999999999e-06,8.309917926778612e-10,-1.083180962578697e-05,8.309917926778612e-10,0.914820918791145
8.440871995568726e-10,9.999999999999999e-06,8.440871995568726e-10,-1.082901966643516e-05,8.440871995568726e-10,0.9133104082859255
8.596615918070345e-10,9.999999999999999e-06,8.596615918070345e-10,-1.082553969401785e-05,8.596615918070345e-10,0.9114582621488422
8.872005647569923e-10,9.999999999999999e-06,8.872005647569923e-10,-1.081894753329162e-05,8.872005647569923e-10,0.9080315115467195
9.124566512336117e-10,9.999999999999999e-06,9.124566512336117e-10,-1.081241750190048e-05,9.124566512336117e-10,0.9047172226387222
9.321555005520298e-10,9.999999999999999e-06,9.321555005520298e-10,-1.08069984227855e-05,9.321555005520298e-10,0.902011633951297
9.479561670512711e-10,9.999999999999999e-06,9.479561670512711e-10,-1.080243065506706e-05,9.479561670512711e-10,0.8997560250958883
9.613458870382518e-10,9.999999999999999e-06,9.613458870382518e-10,-1.079839457063245e-05,9.613458870382518e-10,0.8977777452756303
9.737695147246171e-10,9.999999999999999e-06,9.737695147246171e-10,-1.07945243908442e-05,9.737695147246171e-10,0.895888602409544
9.858304710329702e-10,9.999999999999999e-06,9.858304710329702e-10,-1.079068343739304e-05,9.858304710329702e-10,0.89401514051108
9.929152355164853e-10,9.999999999999999e-06,9.929152355164853e-10,-1.078840474850327e-05,9.929152355164853e-10,0.8929018991728571
1e-09,9.999999999999999e-06,1e-09,-1.078612519663695e-05,1e-09,0.8917845401866699
1.003946089245607e-09,9.999999999999999e-06,1.003946089245607e-09,-1.078486113366602e-05,1.003946089245607e-09,0.8911615032035836
1.010127272936911e-09,9.999999999999999e-06,1.010127272936911e-09,-1.078289614689889e-05,1.010127272936911e-09,0.8901889164241051
1.017173609999949e-09,9.999999999999999e-06,1.017173609999949e-09,-1.078069190452987e-05,1.017173609999949e-09,0.8890887691612741
1.026256889242414e-09,9.999999999999999e-06,1.026256889242414e-09,-1.077792827227831e-05,1.026256889242414e-09,0.8876904542389745
1.036825004561398e-09,9.999999999999999e-06,1.036825004561398e-09,-1.077485732683537e-05,1.036825004561398e-09,0.8861021189266464
1.047772510417082e-09,9.999999999999999e-06,1.047772510417082e-09,-1.077187880444744e-05,1.047772510417082e-09,0.8845126204105663
1.059043034195359e-09,9.999999999999999e-06,1.059043034195359e-09,-1.076906904747314e-05,1.059043034195359e-09,0.882950492854122
1.070193035700649e-09,9.999999999999999e-06,1.070193035700649e-09,-1.076659645405577e-05,1.070193035700649e-09,0.881499720494447
1.076468855853171e-09,9.999999999999999e-06,1.076468855853171e-09,-1.076537208099987e-05,1.076468855853171e-09,0.8807378804327423
1.082874432924331e-09,9.999999999999999e-06,1.082874432924331e-09,-1.076429294323802e-05,1.082874432924331e-09,0.8800214400448867
1.088081047096671e-09,9.999999999999999e-06,1.088081047096671e-09,-1.076356579765331e-05,1.088081047096671e-09,0.8794936987764981
1.09343539187944e-09,9.999999999999999e-06,1.09343539187944e-09,-1.07629531704506e-05,1.09343539187944e-09,0.8790010685675828
1.098842118173737e-09,9.999999999999999e-06,1.098842118173737e-09,-1.076245378758855e-05,1.098842118173737e-09,0.878547992397792
1.104485576083804e-09,9.999999999999999e-06,1.104485576083804e-09,-1.076203701625942e-05,1.104485576083804e-09,0.8781142944426565
1.110095204415245e-09,9.999999999999999e-06,1.110095204415245e-09,-1.07617111127015e-05,1.110095204415245e-09,0.8777167771525739
1.116249179650172e-09,9.999999999999999e-06,1.116249179650172e-09,-1.076144074993529e-05,1.116249179650172e-09,0.877314673260533
1.12338639552288e-09,9.999999999999999e-06,1.12338639552288e-09,-1.076122649565338e-05,1.12338639552288e-09,0.876888427230946
1.132079874961709e-09,9.999999999999999e-06,1.132079874961709e-09,-1.076109619146661e-05,1.132079874961709e-09,0.8764245950253396
1.143275015282365e-09,9.999999999999999e-06,1.143275015282365e-09,-1.076111844512132e-05,1.143275015282365e-09,0.8759133078656228
1.158562493039973e-09,9.999999999999999e-06,1.158562493039973e-09,-1.076145261399068e-05,1.158562493039973e-09,0.8753654715843483
1.178137567828985e-09,9.999999999999999e-06,1.178137567828985e-09,-1.076229054501171e-05,1.178137567828985e-09,0.8748996809262498
1.198920138687277e-09,9.999999999999999e-06,1.198920138687277e-09,-1.076352423321399e-05,1.198920138687277e-09,0.8746571791246546
1.217733903341284e-09,9.999999999999999e-06,1.217733903341284e-09,-1.076478470789744e-05,1.217733903341284e-09,0.8746153583246487
1.235073694685595e-09,9.999999999999999e-06,1.235073694685595e-09,-1.076593477500619e-05,1.235073694685595e-09,0.8746836689121724
1.25571145858406e-09,9.999999999999999e-06,1.25571145858406e-09,-1.076715509755838e-05,1.25571145858406e-09,0.8748447602149423
1.27833847257464e-09,9.999999999999999e-06,1.27833847257464e-09,-1.076822428035088e-05,1.27833847257464e-09,0.8750677274450775
1.300906804120538e-09,9.999999999999999e-06,1.300906804120538e-09,-1.076900275327154e-05,1.300906804120538e-09,0.8752972957613957
1.324088273004989e-09,9.999999999999999e-06,1.324088273004989e-09,-1.076955043447605e-05,1.324088273004989e-09,0.8755102002700607
1.350624723211059e-09,9.999999999999999e-06,1.350624723211059e-09,-1.076997546755137e-05,1.350624723211059e-09,0.8757008867221988
1.381140335426125e-09,9.999999999999999e-06,1.381140335426125e-09,-1.077037170145831e-05,1.381140335426125e-09,0.875833853908392
1.41378299834314e-09,9.999999999999999e-06,1.41378299834314e-09,-1.077087128836277e-05,1.41378299834314e-09,0.8758686748553814
1.448098751944915e-09,9.999999999999999e-06,1.448098751944915e-09,-1.077162861461001e-05,1.448098751944915e-09,0.8757891595227774
1.474174376180791e-09,9.999999999999999e-06,1.474174376180791e-09,-1.077241076188748e-05,1.474174376180791e-09,0.8756539475801131
1.500250000416667e-09,9.999999999999999e-06,1.500250000416667e-09,-1.07733851171565e-05,1.500250000416667e-09,0.8754589023797488
1.508412341924959e-09,9.999999999999999e-06,1.508412341924959e-09,-1.077363535366374e-05,1.508412341924959e-09,0.8753219854640972
1.515385881755255e-09,9.999999999999999e-06,1.515385881755255e-09,-1.077380125288034e-05,1.515385881755255e-09,0.8751955847235503
1.523036572382428e-09,9.999999999999999e-06,1.523036572382428e-09,-1.077398111081689e-05,1.523036572382428e-09,0.8750455752569196
1.533668384199761e-09,9.999999999999999e-06,1.533668384199761e-09,-1.077420573865413e-05,1.533668384199761e-09,0.87481889344025
1.546626095520424e-09,9.999999999999999e-06,1.546626095520424e-09,-1.077446090067689e-05,1.546626095520424e-09,0.8745178164499432
1.568010668926855e-09,9.999999999999999e-06,1.568010668926855e-09,-1.07748862568322e-05,1.568010668926855e-09,0.8739725744346338
1.596246027178981e-09,9.999999999999999e-06,1.596246027178981e-09,-1.077551645647477e-05,1.596246027178981e-09,0.8731797155946348
1.628491147858371e-09,9.999999999999999e-06,1.628491147858371e-09,-1.077635663205298e-05,1.628491147858371e-09,0.8721941936063217
1.666797597734552e-09,9.999999999999999e-06,1.666797597734552e-09,-1.077749404150336e-05,1.666797597734552e-09,0.8709348832745289
1.71413512808018e-09,9.999999999999999e-06,1.71413512808018e-09,-1.077900062289444e-05,1.71413512808018e-09,0.8692699384207258
1.776198117344046e-09,9.999999999999999e-06,1.776198117344046e-09,-1.078093327687481e-05,1.776198117344046e-09,0.8669362304331459
1.864444099195046e-09,9.999999999999999e-06,1.864444099195046e-09,-1.078323532327552e-05,1.864444099195046e-09,0.8633800059402846
2.001579548023928e-09,9.999999999999999e-06,2.001579548023928e-09,-1.078530814449885e-05,2.001579548023928e-09,0.8574451515383467
2.167710196606276e-09,9.999999999999999e-06,2.167710196606276e-09,-1.078537795392148e-05,2.167710196606276e-09,0.849826828095132
2.373468333148371e-09,9.999999999999999e-06,2.373468333148371e-09,-1.078258564910341e-05,2.373468333148371e-09,0.8401281474737787
2.635696551426263e-09,9.999999999999999e-06,2.635696551426263e-09,-1.077660224162473e-05,2.635696551426263e-09,0.8280560249630387
2.959308942889599e-09,9.999999999999999e-06,2.959308942889599e-09,-1.077013947707041e-05,2.959308942889599e-09,0.8150191488856522
3.30292552162947e-09,9.999999999999999e-06,3.30292552162947e-09,-1.077110752010585e-05,3.30292552162947e-09,0.8054963770949428
3.635384173323054e-09,9.999999999999999e-06,3.635384173323054e-09,-1.078096557301818e-05,3.635384173323054e-09,0.8022968663871953
3.985819692363322e-09,9.999999999999999e-06,3.985819692363322e-09,-1.07987400148349e-05,3.985819692363322e-09,0.8059837081095795
4.448476861348293e-09,9.999999999999999e-06,4.448476861348293e-09,-1.083559867143034e-05,4.448476861348293e-09,0.8197706525616398
4.724238430674146e-09,9.999999999999999e-06,4.724238430674146e-09,-1.086576964679555e-05,4.724238430674146e-09,0.8313191701306961
4.999999999999999e-09,9.999999999999999e-06,4.999999999999999e-09,-1.088703147399043e-05,4.999999999999999e-09,0.8441210794766011
5.215084307922323e-09,9.999999999999999e-06,5.215084307922323e-09,-1.090068393002245e-05,5.215084307922323e-09,0.8545700297580257
5.562841488519458e-09,9.999999999999999e-06,5.562841488519458e-09,-1.092598580400454e-05,5.562841488519458e-09,0.8712939690262679
5.781420744259729e-09,9.999999999999999e-06,5.781420744259729e-09,-1.093314573141831e-05,5.781420744259729e-09,0.8816317571620652
5.999999999999999e-09,9.999999999999999e-06,5.999999999999999e-09,-1.0944288774191e-05,5.999999999999999e-09,0.8917749270496581
6.268696159262488e-09,9.999999999999999e-06,6.268696159262488e-09,-1.09561481451189e-05,6.268696159262488e-09,0.9037384279683154
6.652416794288373e-09,9.999999999999999e-06,6.652416794288373e-09,-1.097192928979144e-05,6.652416794288373e-09,0.920282161147534
7.056495160344786e-09,9.999999999999999e-06,7.056495160344786e-09,-1.098703981427054e-05,7.056495160344786e-09,0.9367771627610451
7.62823365278519e-09,9.999999999999999e-06,7.62823365278519e-09,-1.100602284337314e-05,7.62823365278519e-09,0.9582181453211236
8.404383739563068e-09,9.999999999999999e-06,8.404383739563068e-09,-1.102727039452401e-05,8.404383739563068e-09,0.9834093091860108
9.202191869781534e-09,9.999999999999999e-06,9.202191869781534e-09,-1.10434358141486e-05,9.202191869781534e-09,1.004403969022139
1e-08,9.999999999999999e-06,1e-08,-1.105382186287698e-05,1e-08,1.020486209672766
1.029002373940231e-08,9.999999999999999e-06,1.029002373940231e-08,-1.105585694750306e-05,1.029002373940231e-08,1.02484631534625
1.050025000041667e-08,9.999999999999999e-06,1.050025000041667e-08,-1.105702618776209e-05,1.050025000041667e-08,1.027792316073289
1.050555656920154e-08,9.999999999999999e-06,1.050555656920154e-08,-1.105704950565228e-05,1.050555656920154e-08,1.027864274497251
1.050958122645761e-08,9.999999999999999e-06,1.050958122645761e-08,-1.105707047648369e-05,1.050958122645761e-08,1.027918735518456
1.051341096712557e-08,9.999999999999999e-06,1.051341096712557e-08,-1.105709033026031e-05,1.051341096712557e-08,1.027970462708679
1.051547623606295e-08,9.999999999999999e-06,1.051547623606295e-08,-1.105710098950363e-05,1.051547623606295e-08,1.027998317281963
1.051764091271119e-08,9.999999999999999e-06,1.051764091271119e-08,-1.105711213092152e-05,1.051764091271119e-08,1.028027481563562
1.051980798229343e-08,9.999999999999999e-06,1.051980798229343e-08,-1.105712324984052e-05,1.051980798229343e-08,1.028056646018009
1.052216198340093e-08,9.999999999999999e-06,1.052216198340093e-08,-1.10571352880584e-05,1.052216198340093e-08,1.028088289748771
1.052499356241645e-08,9.999999999999999e-06,1.052499356241645e-08,-1.105714971010649e-05,1.052499356241645e-08,1.028126303779155
1.052851342779433e-08,9.999999999999999e-06,1.052851342779433e-08,-1.105716755499496e-05,1.052851342779433e-08,1.028173481042169
1.053303529282941e-08,9.999999999999999e-06,1.053303529282941e-08,-1.105719034391123e-05,1.053303529282941e-08,1.02823396420297
1.053901941822151e-08,9.999999999999999e-06,1.053901941822151e-08,-1.105722026490179e-05,1.053901941822151e-08,1.028313790980264
1.054728640739229e-08,9.999999999999999e-06,1.054728640739229e-08,-1.105726115918492e-05,1.054728640739229e-08,1.028423669446451
1.055957169609715e-08,9.999999999999999e-06,1.055957169609715e-08,-1.105732097079606e-05,1.055957169609715e-08,1.028586095903935
1.058013367314837e-08,9.999999999999999e-06,1.058013367314837e-08,-1.10574185427564e-05,1.058013367314837e-08,1.028855657746349
1.061788247063148e-08,9.999999999999999e-06,1.061788247063148e-08,-1.105758957950506e-05,1.061788247063148e-08,1.029343080053473
1.066048914806478e-08,9.999999999999999e-06,1.066048914806478e-08,-1.10577696741383e-05,1.066048914806478e-08,1.029881705378196
1.069554588106491e-08,9.999999999999999e-06,1.069554588106491e-08,-1.105790911549337e-05,1.069554588106491e-08,1.030315774965569
1.072495366182193e-08,9.999999999999999e-06,1.072495366182193e-08,-1.105801937097239e-05,1.072495366182193e-08,1.030673581763468
1.075145406530927e-08,9.999999999999999e-06,1.075145406530927e-08,-1.105811332548595e-05,1.075145406530927e-08,1.030991103592143
1.077976037497154e-08,9.999999999999999e-06,1.077976037497154e-08,-1.105820807851316e-05,1.077976037497154e-08,1.031325150091719
1.079519925130635e-08,9.999999999999999e-06,1.079519925130635e-08,-1.105825739336268e-05,1.079519925130635e-08,1.031505125499383
1.081052076665432e-08,9.999999999999999e-06,1.081052076665432e-08,-1.105830458386187e-05,1.081052076665432e-08,1.031682189034423
1.082552417354962e-08,9.999999999999999e-06,1.082552417354962e-08,-1.105834916362193e-05,1.082552417354962e-08,1.0318540911041
1.08441601478364e-08,9.999999999999999e-06,1.08441601478364e-08,-1.105840227898252e-05,1.08441601478364e-08,1.032065574913021
1.086431811281235e-08,9.999999999999999e-06,1.086431811281235e-08,-1.105845696372741e-05,1.086431811281235e-08,1.032291798179392
1.087984715734649e-08,9.999999999999999e-06,1.087984715734649e-08,-1.105849712069493e-05,1.087984715734649e-08,1.032464283677387
1.089583845958545e-08,9.999999999999999e-06,1.089583845958545e-08,-1.105853674090856e-05,1.089583845958545e-08,1.032640293640909
1.09179658319159e-08,9.999999999999999e-06,1.09179658319159e-08,-1.105858881671586e-05,1.09179658319159e-08,1.032881129754552
1.095591187134075e-08,9.999999999999999e-06,1.095591187134075e-08,-1.105866987935415e-05,1.095591187134075e-08,1.033286852855857
1.097795593567038e-08,9.999999999999999e-06,1.097795593567038e-08,-1.105871463067628e-05,1.097795593567038e-08,1.033518345512189
