/I1/PLUS (Design_Point=1) X,/I1/PLUS (Design_Point=1) Y,/NM0/S (Design_Point=1) X,/NM0/S (Design_Point=1) Y,/out (Design_Point=1) X,/out (Design_Point=1) Y
0,1e-07,0,-1.641654557643722e-09,0,0.9999989016427607
5.002500004166667e-10,1e-07,5.002500004166667e-10,-1.090549435561513e-06,5.002500004166667e-10,0.9948309612344279
5.011654438241927e-10,1e-07,5.011654438241927e-10,-1.089652886019971e-06,5.011654438241927e-10,0.9948233300514764
5.018289990319605e-10,1e-07,5.018289990319605e-10,-1.08964141150057e-06,5.018289990319605e-10,0.9948177409590675
5.031561094474961e-10,1e-07,5.031561094474961e-10,-1.089618040385167e-06,5.031561094474961e-10,0.9948063599350606
5.044259056915559e-10,1e-07,5.044259056915559e-10,-1.089595239290866e-06,5.044259056915559e-10,0.9947952503020606
5.062434594742988e-10,1e-07,5.062434594742988e-10,-1.089562094543852e-06,5.062434594742988e-10,0.9947790696552171
5.082064628005579e-10,1e-07,5.082064628005579e-10,-1.089525890803807e-06,5.082064628005579e-10,0.994761333800477
5.101390320012526e-10,1e-07,5.101390320012526e-10,-1.089490046348094e-06,5.101390320012526e-10,0.9947436957429707
5.120459546220168e-10,1e-07,5.120459546220168e-10,-1.089454627450059e-06,5.120459546220168e-10,0.9947261809369005
5.140584565421244e-10,1e-07,5.140584565421244e-10,-1.089417299896647e-06,5.140584565421244e-10,0.9947076228933525
5.162926018714677e-10,1e-07,5.162926018714677e-10,-1.089376004786921e-06,5.162926018714677e-10,0.9946869689753629
5.188802607099187e-10,1e-07,5.188802607099187e-10,-1.0893284265072e-06,5.188802607099187e-10,0.9946630094974747
5.219788745115063e-10,1e-07,5.219788745115063e-10,-1.089271853197257e-06,5.219788745115063e-10,0.9946342936629439
5.257887077887775e-10,1e-07,5.257887077887775e-10,-1.089202912998684e-06,5.257887077887775e-10,0.9945989734084656
5.30605641477251e-10,1e-07,5.30605641477251e-10,-1.089116704288002e-06,5.30605641477251e-10,0.9945543166423608
5.369289606209918e-10,1e-07,5.369289606209918e-10,-1.089005047382539e-06,5.369289606209918e-10,0.9944957118088157
5.457163012278397e-10,1e-07,5.457163012278397e-10,-1.088852428540732e-06,5.457163012278397e-10,0.9944143150521748
5.591087879155922e-10,1e-07,5.591087879155922e-10,-1.088624614767232e-06,5.591087879155922e-10,0.9942903694571248
5.832983979748623e-10,1e-07,5.832983979748623e-10,-1.088224254757823e-06,5.832983979748623e-10,0.9940668448031108
6.316776180934024e-10,1e-07,6.316776180934024e-10,-1.087450904045939e-06,6.316776180934024e-10,0.9936214529033668
6.476806428066176e-10,1e-07,6.476806428066176e-10,-1.087201217069155e-06,6.476806428066176e-10,0.9934745638792629
6.685284073532479e-10,1e-07,6.685284073532479e-10,-1.086879221635726e-06,6.685284073532479e-10,0.9932835103401471
6.798350994989631e-10,1e-07,6.798350994989631e-10,-1.086706135764614e-06,6.798350994989631e-10,0.993179997305196
6.916248631411893e-10,1e-07,6.916248631411893e-10,-1.086526834373045e-06,6.916248631411893e-10,0.993072004957037
7.019919461841478e-10,1e-07,7.019919461841478e-10,-1.086370169874095e-06,7.019919461841478e-10,0.9929768137904604
7.101235879691578e-10,1e-07,7.101235879691578e-10,-1.086247822070932e-06,7.101235879691578e-10,0.9929018052628928
7.171037055608946e-10,1e-07,7.171037055608946e-10,-1.086142950624152e-06,7.171037055608946e-10,0.9928369818111517
7.234641792640679e-10,1e-07,7.234641792640679e-10,-1.08604717633717e-06,7.234641792640679e-10,0.9927773562209004
7.294866020179617e-10,1e-07,7.294866020179617e-10,-1.085955857333757e-06,7.294866020179617e-10,0.9927201866737386
7.354461086654903e-10,1e-07,7.354461086654903e-10,-1.08586426831392e-06,7.354461086654903e-10,0.9926626683830796
7.412736855863862e-10,1e-07,7.412736855863862e-10,-1.085772748981475e-06,7.412736855863862e-10,0.9926052137988567
7.471631236799103e-10,1e-07,7.471631236799103e-10,-1.085677320320416e-06,7.471631236799103e-10,0.9925455762870868
7.534474910981404e-10,1e-07,7.534474910981404e-10,-1.085570775974735e-06,7.534474910981404e-10,0.9924797192534113
7.60353876287894e-10,1e-07,7.60353876287894e-10,-1.085445941283012e-06,7.60353876287894e-10,0.9924040186141698
7.675522223095309e-10,1e-07,7.675522223095309e-10,-1.085304456952205e-06,7.675522223095309e-10,0.9923205423923944
7.751505344972552e-10,1e-07,7.751505344972552e-10,-1.085138835079531e-06,7.751505344972552e-10,0.9922262671194869
7.834938343109453e-10,1e-07,7.834938343109453e-10,-1.084933439754489e-06,7.834938343109453e-10,0.9921142336882535
7.927013065947232e-10,1e-07,7.927013065947232e-10,-1.084670833632049e-06,7.927013065947232e-10,0.9919780069848211
8.032440436266421e-10,1e-07,8.032440436266421e-10,-1.084315632455972e-06,8.032440436266421e-10,0.9918034920860632
8.188022372454895e-10,1e-07,8.188022372454895e-10,-1.08366606298833e-06,8.188022372454895e-10,0.9915042940850236
8.334450991386084e-10,1e-07,8.334450991386084e-10,-1.082902238066766e-06,8.334450991386084e-10,0.9911725444754721
8.464639138702918e-10,1e-07,8.464639138702918e-10,-1.082089361388561e-06,8.464639138702918e-10,0.9908337503934771
8.632361942396283e-10,1e-07,8.632361942396283e-10,-1.080846688175267e-06,8.632361942396283e-10,0.9903329716125279
8.903564775035078e-10,1e-07,8.903564775035078e-10,-1.078372108337169e-06,8.903564775035078e-10,0.9893679766528896
9.148703143260003e-10,1e-07,9.148703143260003e-10,-1.075648231793132e-06,9.148703143260003e-10,0.9883285288099408
9.340339684873427e-10,1e-07,9.340339684873427e-10,-1.073186493545625e-06,9.340339684873427e-10,0.9873969048137168
9.495242884884084e-10,1e-07,9.495242884884084e-10,-1.07096569724473e-06,9.495242884884084e-10,0.9865571540793011
9.627691528241796e-10,1e-07,9.627691528241796e-10,-1.068890386291483e-06,9.627691528241796e-10,0.9857699881720663
9.752465814845516e-10,1e-07,9.752465814845516e-10,-1.066797342181674e-06,9.752465814845516e-10,0.9849719655577941
9.87395581987348e-10,1e-07,9.87395581987348e-10,-1.064662279813793e-06,9.87395581987348e-10,0.9841522892769127
9.936977909936742e-10,1e-07,9.936977909936742e-10,-1.063529468607522e-06,9.936977909936742e-10,0.9837147798597879
1e-09,1e-07,1e-09,-1.062390166457008e-06,1e-09,0.9832724964608118
1.004216622603442e-09,1e-07,1.004216622603442e-09,-1.061628387612972e-06,1.004216622603442e-09,0.9829745209857773
1.010672649499635e-09,1e-07,1.010672649499635e-09,-1.060472832256071e-06,1.010672649499635e-09,0.982520284631572
1.017546660847604e-09,1e-07,1.017546660847604e-09,-1.05926536480769e-06,1.017546660847604e-09,0.982041400519195
1.027541239784711e-09,1e-07,1.027541239784711e-09,-1.057573085651066e-06,1.027541239784711e-09,0.9813600602810006
1.038206330763605e-09,1e-07,1.038206330763605e-09,-1.055876668765908e-06,1.038206330763605e-09,0.980660136337306
1.049182094071298e-09,1e-07,1.049182094071298e-09,-1.054280764465894e-06,1.049182094071298e-09,0.9799788531710562
1.061481009113783e-09,1e-07,1.061481009113783e-09,-1.052719629017261e-06,1.061481009113783e-09,0.9792786082096842
1.072482423351044e-09,1e-07,1.072482423351044e-09,-1.051587551997374e-06,1.072482423351044e-09,0.9787325476045675
1.078304649513247e-09,1e-07,1.078304649513247e-09,-1.051128160520859e-06,1.078304649513247e-09,0.9784893894084929
1.084149810374612e-09,1e-07,1.084149810374612e-09,-1.050805908762106e-06,1.084149810374612e-09,0.9782950142054375
1.089217782779342e-09,1e-07,1.089217782779342e-09,-1.050654919696136e-06,1.089217782779342e-09,0.9781728373117866
1.095163543729092e-09,1e-07,1.095163543729092e-09,-1.050617975318075e-06,1.095163543729092e-09,0.978080468785172
1.102560624135299e-09,1e-07,1.102560624135299e-09,-1.050743061072107e-06,1.102560624135299e-09,0.9780273610198272
1.108219827480438e-09,1e-07,1.108219827480438e-09,-1.050943556644668e-06,1.108219827480438e-09,0.9780243706695543
1.113946162810113e-09,1e-07,1.113946162810113e-09,-1.051223719598968e-06,1.113946162810113e-09,0.9780491804056561
1.120567818638305e-09,1e-07,1.120567818638305e-09,-1.051632732242796e-06,1.120567818638305e-09,0.9781089951580206
1.128459834577726e-09,1e-07,1.128459834577726e-09,-1.052229321934561e-06,1.128459834577726e-09,0.9782214415000073
1.138620050477469e-09,1e-07,1.138620050477469e-09,-1.053160565448688e-06,1.138620050477469e-09,0.9784306845975075
1.152469067138676e-09,1e-07,1.152469067138676e-09,-1.054704518294609e-06,1.152469067138676e-09,0.9788319248736291
1.172317936143664e-09,1e-07,1.172317936143664e-09,-1.057405965827575e-06,1.172317936143664e-09,0.9796353524819056
1.19282173855579e-09,1e-07,1.19282173855579e-09,-1.060696458970264e-06,1.19282173855579e-09,0.9807316130962808
1.212886102955178e-09,1e-07,1.212886102955178e-09,-1.06426939916011e-06,1.212886102955178e-09,0.9820350298087862
1.231035329211032e-09,1e-07,1.231035329211032e-09,-1.067667779468168e-06,1.231035329211032e-09,0.983373045791716
1.248112669260467e-09,1e-07,1.248112669260467e-09,-1.070897712333707e-06,1.248112669260467e-09,0.9847337007360247
1.268507938614715e-09,1e-07,1.268507938614715e-09,-1.074678042698091e-06,1.268507938614715e-09,0.9864411417013577
1.292121837993931e-09,1e-07,1.292121837993931e-09,-1.078861963248766e-06,1.292121837993931e-09,0.9884772366980715
1.315100228131044e-09,1e-07,1.315100228131044e-09,-1.082711345644436e-06,1.315100228131044e-09,0.9904795584623916
1.338247752035526e-09,1e-07,1.338247752035526e-09,-1.086390494960175e-06,1.338247752035526e-09,0.9924880766532277
1.364600766881333e-09,1e-07,1.364600766881333e-09,-1.090399136468243e-06,1.364600766881333e-09,0.9947392620537799
1.39532425505367e-09,1e-07,1.39532425505367e-09,-1.094940005587725e-06,1.39532425505367e-09,0.99729652125239
1.42875786691318e-09,1e-07,1.42875786691318e-09,-1.099842657076062e-06,1.42875786691318e-09,0.9999870028784167
1.464187856617962e-09,1e-07,1.464187856617962e-09,-1.105098576154558e-06,1.464187856617962e-09,1.002732083915969
1.500250000416667e-09,1e-07,1.500250000416667e-09,-1.110565507762037e-06,1.500250000416667e-09,1.00541907800299
1.508982106686266e-09,1e-07,1.508982106686266e-09,-1.111797977958495e-06,1.508982106686266e-09,1.005983710978776
1.516825756206927e-09,1e-07,1.516825756206927e-09,-1.112845204004759e-06,1.516825756206927e-09,1.006479529938521
1.52598582058675e-09,1e-07,1.52598582058675e-09,-1.114054159723808e-06,1.52598582058675e-09,1.007043273418061
1.537365221500261e-09,1e-07,1.537365221500261e-09,-1.11551562413092e-06,1.537365221500261e-09,1.007722919349884
1.551254378565351e-09,1e-07,1.551254378565351e-09,-1.117260418058807e-06,1.551254378565351e-09,1.008525503849274
1.574690667267904e-09,1e-07,1.574690667267904e-09,-1.120164451848686e-06,1.574690667267904e-09,1.009825852395691
1.604371507811859e-09,1e-07,1.604371507811859e-09,-1.123830226886611e-06,1.604371507811859e-09,1.0113955934482
1.638308334054681e-09,1e-07,1.638308334054681e-09,-1.128033842501115e-06,1.638308334054681e-09,1.013106893482667
1.678701080954231e-09,1e-07,1.678701080954231e-09,-1.133031190431474e-06,1.678701080954231e-09,1.015049959139458
1.728660202792432e-09,1e-07,1.728660202792432e-09,-1.139112618591883e-06,1.728660202792432e-09,1.017335428379073
1.794471708842166e-09,1e-07,1.794471708842166e-09,-1.146779019741511e-06,1.794471708842166e-09,1.02017645414733
1.888412463337622e-09,1e-07,1.888412463337622e-09,-1.156773265056494e-06,1.888412463337622e-09,1.023948534031375
2.035967634642488e-09,1e-07,2.035967634642488e-09,-1.169991437870202e-06,2.035967634642488e-09,1.029327554505599
2.219756370621448e-09,1e-07,2.219756370621448e-09,-1.182566990612058e-06,2.219756370621448e-09,1.035291855457414
2.448268625215229e-09,1e-07,2.448268625215229e-09,-1.19339451747524e-06,2.448268625215229e-09,1.041837433935372
2.745886913832117e-09,1e-07,2.745886913832117e-09,-1.201892879388083e-06,2.745886913832117e-09,1.04925737957502
3.097438525510028e-09,1e-07,3.097438525510028e-09,-1.206720831472735e-06,3.097438525510028e-09,1.056715124942037
3.472692589229789e-09,1e-07,3.472692589229789e-09,-1.208114289586599e-06,3.472692589229789e-09,1.063297976960987
3.899359324561267e-09,1e-07,3.899359324561267e-09,-1.206924990248623e-06,3.899359324561267e-09,1.069158273172254
4.413775716810052e-09,1e-07,4.413775716810052e-09,-1.203037321178188e-06,4.413775716810052e-09,1.07401131178635
4.999999999999999e-09,1e-07,4.999999999999999e-09,-1.196315214261807e-06,4.999999999999999e-09,1.076769403461728
5.220988389946671e-09,1e-07,5.220988389946671e-09,-1.193195761086485e-06,5.220988389946671e-09,1.076896209541931
5.662965169840013e-09,1e-07,5.662965169840013e-09,-1.186291987919313e-06,5.662965169840013e-09,1.07635285645618
5.999999999999999e-09,1e-07,5.999999999999999e-09,-1.180690659535745e-06,5.999999999999999e-09,1.075175817176082
6.266841790404309e-09,1e-07,6.266841790404309e-09,-1.17600051136602e-06,6.266841790404309e-09,1.073621426222512
6.729290216608177e-09,1e-07,6.729290216608177e-09,-1.167590764837072e-06,6.729290216608177e-09,1.070339666077126
7.123087563744034e-09,1e-07,7.123087563744034e-09,-1.160302469976546e-06,7.123087563744034e-09,1.066932704084937
7.910682258015747e-09,1e-07,7.910682258015747e-09,-1.145727638347686e-06,7.910682258015747e-09,1.058780516050585
8.74407420947446e-09,1e-07,8.74407420947446e-09,-1.130886434585026e-06,8.74407420947446e-09,1.048850900564275
9.37203710473723e-09,1e-07,9.37203710473723e-09,-1.120405731212568e-06,9.37203710473723e-09,1.040855691277929
1e-08,1e-07,1e-08,-1.110738569833371e-06,1e-08,1.032719421059575
1.05e-08,1e-07,1.05e-08,-1.103970592778807e-06,1.05e-08,1.026334450516776
1.050832683949146e-08,1e-07,1.050832683949146e-08,-1.103858216731813e-06,1.050832683949146e-08,1.026228209215485
1.051441067256908e-08,1e-07,1.051441067256908e-08,-1.103776157203196e-06,1.051441067256908e-08,1.026150601362984
1.051793903066138e-08,1e-07,1.051793903066138e-08,-1.103728604761974e-06,1.051793903066138e-08,1.026105600610726
1.052073437416039e-08,1e-07,1.052073437416039e-08,-1.103690958017716e-06,1.052073437416039e-08,1.026069955039926
1.052344612610626e-08,1e-07,1.052344612610626e-08,-1.103654456190012e-06,1.052344612610626e-08,1.026035379364279
1.052610991522092e-08,1e-07,1.052610991522092e-08,-1.103618618858962e-06,1.052610991522092e-08,1.02600141920411
1.052915812927126e-08,1e-07,1.052915812927126e-08,-1.103577633172881e-06,1.052915812927126e-08,1.025962563147937
1.053295069588309e-08,1e-07,1.053295069588309e-08,-1.103526674280526e-06,1.053295069588309e-08,1.025914226436753
1.053798059614747e-08,1e-07,1.053798059614747e-08,-1.103459138408521e-06,1.053798059614747e-08,1.025850133103081
1.054505467661073e-08,1e-07,1.054505467661073e-08,-1.103364277084841e-06,1.054505467661073e-08,1.025760017791229
1.055566404024443e-08,1e-07,1.055566404024443e-08,-1.10322224580198e-06,1.055566404024443e-08,1.025624924482555
1.05732430726927e-08,1e-07,1.05732430726927e-08,-1.102987560561333e-06,1.05732430726927e-08,1.025401236887245
1.060616784702591e-08,1e-07,1.060616784702591e-08,-1.102550272456401e-06,1.060616784702591e-08,1.024982882923452
1.065000642907326e-08,1e-07,1.065000642907326e-08,-1.101972129288113e-06,1.065000642907326e-08,1.024426930116757
1.0687105010322e-08,1e-07,1.0687105010322e-08,-1.101486666749059e-06,1.0687105010322e-08,1.023957547046856
1.071761477212827e-08,1e-07,1.071761477212827e-08,-1.10109139652572e-06,1.071761477212827e-08,1.023572230010917
1.0744615350958e-08,1e-07,1.0744615350958e-08,-1.100743106467873e-06,1.0744615350958e-08,1.023231775518781
1.077151546485235e-08,1e-07,1.077151546485235e-08,-1.10039812134356e-06,1.077151546485235e-08,1.02289319613733
1.078602859984395e-08,1e-07,1.078602859984395e-08,-1.100212686530876e-06,1.078602859984395e-08,1.022710734840197
1.080291620831702e-08,1e-07,1.080291620831702e-08,-1.099997528249898e-06,1.080291620831702e-08,1.02249861784699
1.0818644007817e-08,1e-07,1.0818644007817e-08,-1.099797728445948e-06,1.0818644007817e-08,1.022301260538476
1.083438246786341e-08,1e-07,1.083438246786341e-08,-1.099598364406738e-06,1.083438246786341e-08,1.022103956820642
1.085041311605237e-08,1e-07,1.085041311605237e-08,-1.099395868977418e-06,1.085041311605237e-08,1.021903184110592
1.08665376541874e-08,1e-07,1.08665376541874e-08,-1.099192955222879e-06,1.08665376541874e-08,1.021701512726261
1.088188343267343e-08,1e-07,1.088188343267343e-08,-1.09900026559463e-06,1.088188343267343e-08,1.02150972741822
1.08997783560646e-08,1e-07,1.08997783560646e-08,-1.098776235009853e-06,1.08997783560646e-08,1.021286319248941
1.092516504041692e-08,1e-07,1.092516504041692e-08,-1.098459593828047e-06,1.092516504041692e-08,1.020969814705128
1.09601321174826e-08,1e-07,1.09601321174826e-08,-1.09802608427301e-06,1.09601321174826e-08,1.020534850911386
1.09800660587413e-08,1e-07,1.09800660587413e-08,-1.097780100926927e-06,1.09800660587413e-08,1.020287325339142
1.1e-08,1e-07,1.1e-08,-1.097534949607016e-06,1.1e-08,1.020040127443082
1.100891566123624e-08,1e-07,1.100891566123624e-08,-1.097428337802752e-06,1.100891566123624e-08,1.01992973471999
1.102360386537301e-08,1e-07,1.102360386537301e-08,-1.097250024871174e-06,1.102360386537301e-08,1.019747951319911
1.1041166958116e-08,1e-07,1.1041166958116e-08,-1.097037365231757e-06,1.1041166958116e-08,1.019530813309954
1.105883790081374e-08,1e-07,1.105883790081374e-08,-1.096824059527732e-06,1.105883790081374e-08,1.019312604406038
1.108081938524377e-08,1e-07,1.108081938524377e-08,-1.096559624468846e-06,1.108081938524377e-08,1.01904153999527
1.110526813559392e-08,1e-07,1.110526813559392e-08,-1.096266985287637e-06,1.110526813559392e-08,1.018740656783057
1.113244445071249e-08,1e-07,1.113244445071249e-08,-1.095943101382176e-06,1.113244445071249e-08,1.018406798911593
1.116228689616352e-08,1e-07,1.116228689616352e-08,-1.095589236445661e-06,1.116228689616352e-08,1.018040955094363
1.118961981286302e-08,1e-07,1.118961981286302e-08,-1.095268201225063e-06,1.118961981286302e-08,1.017706676162941
1.121492070436126e-08,1e-07,1.121492070436126e-08,-1.094972155305698e-06,1.121492070436126e-08,1.017397842339214
1.12367295061234e-08,1e-07,1.12367295061234e-08,-1.094718223999917e-06,1.12367295061234e-08,1.017132147218947
1.126033077055861e-08,1e-07,1.126033077055861e-08,-1.0944446038839e-06,1.126033077055861e-08,1.016845123280905
1.128147766572764e-08,1e-07,1.128147766572764e-08,-1.094200483355681e-06,1.128147766572764e-08,1.016588404055273
1.130424042735272e-08,1e-07,1.130424042735272e-08,-1.093938789367772e-06,1.130424042735272e-08,1.016312555965425
1.133194984971542e-08,1e-07,1.133194984971542e-08,-1.093621975344234e-06,1.133194984971542e-08,1.015977547480754
1.136064831154979e-08,1e-07,1.136064831154979e-08,-1.0932954909942e-06,1.136064831154979e-08,1.015631351565523
1.138577818453303e-08,1e-07,1.138577818453303e-08,-1.09301106190671e-06,1.138577818453303e-08,1.015328887379973
1.14116610596792e-08,1e-07,1.14116610596792e-08,-1.092721339570548e-06,1.14116610596792e-08,1.015018044260475
1.143945383952743e-08,1e-07,1.143945383952743e-08,-1.092411649186831e-06,1.143945383952743e-08,1.014685165314852
1.147069665098331e-08,1e-07,1.147069665098331e-08,-1.092065462530265e-06,1.147069665098331e-08,1.014311858453734
1.15e-08,1e-07,1.15e-08,-1.091742701079151e-06,1.15e-08,1.013962644096831
1.150372518466632e-08,1e-07,1.150372518466632e-08,-1.091701967130261e-06,1.150372518466632e-08,1.013918369899767
1.150780717243031e-08,1e-07,1.150780717243031e-08,-1.091657236553563e-06,1.150780717243031e-08,1.013869821070788
1.151346018736412e-08,1e-07,1.151346018736412e-08,-1.091595332122327e-06,1.151346018736412e-08,1.013802612226125
1.152476621723175e-08,1e-07,1.152476621723175e-08,-1.091471670283666e-06,1.152476621723175e-08,1.013668288617273
1.1547378276967e-08,1e-07,1.1547378276967e-08,-1.091225058353458e-06,1.1547378276967e-08,1.013400032800837
1.159260239643751e-08,1e-07,1.159260239643751e-08,-1.090735043551777e-06,1.159260239643751e-08,1.012865221597556
1.168305063537852e-08,1e-07,1.168305063537852e-08,-1.089772240079717e-06,1.168305063537852e-08,1.011802429521633
1.186394711326054e-08,1e-07,1.186394711326054e-08,-1.087904211894287e-06,1.186394711326054e-08,1.009705345940785
1.22257400690246e-08,1e-07,1.22257400690246e-08,-1.084396221728911e-06,1.22257400690246e-08,1.005632167413828
